Freq.	V(Vo1,Vo2)/0.375
9.00000000000000e+000	(2.55098989578773e+001dB,5.66129287157612e+001°)
9.02074714270110e+000	(2.55253100055549e+001dB,5.65704546424507e+001°)
9.04154211250556e+000	(2.55407059889906e+001dB,5.65278823751042e+001°)
9.06238501966624e+000	(2.55560868638464e+001dB,5.64852120841903e+001°)
9.08327597469016e+000	(2.55714525858134e+001dB,5.64424439412325e+001°)
9.10421508833909e+000	(2.55868031106114e+001dB,5.63995781188054e+001°)
9.12520247163011e+000	(2.56021383939897e+001dB,5.63566147905466e+001°)
9.14623823583626e+000	(2.56174583917285e+001dB,5.63135541311481e+001°)
9.16732249248705e+000	(2.56327630596391e+001dB,5.62703963163664e+001°)
9.18845535336912e+000	(2.56480523535665e+001dB,5.62271415230216e+001°)
9.20963693052678e+000	(2.56633262293876e+001dB,5.61837899289985e+001°)
9.23086733626267e+000	(2.56785846430139e+001dB,5.61403417132516e+001°)
9.25214668313826e+000	(2.56938275503919e+001dB,5.60967970558030e+001°)
9.27347508397454e+000	(2.57090549075049e+001dB,5.60531561377472e+001°)
9.29485265185257e+000	(2.57242666703718e+001dB,5.60094191412535e+001°)
9.31627950011409e+000	(2.57394627950505e+001dB,5.59655862495670e+001°)
9.33775574236211e+000	(2.57546432376364e+001dB,5.59216576470060e+001°)
9.35928149246153e+000	(2.57698079542652e+001dB,5.58776335189750e+001°)
9.38085686453973e+000	(2.57849569011130e+001dB,5.58335140519507e+001°)
9.40248197298719e+000	(2.58000900343974e+001dB,5.57892994334995e+001°)
9.42415693245809e+000	(2.58152073103787e+001dB,5.57449898522693e+001°)
9.44588185787089e+000	(2.58303086853593e+001dB,5.57005854979921e+001°)
9.46765686440900e+000	(2.58453941156873e+001dB,5.56560865614915e+001°)
9.48948206752132e+000	(2.58604635577547e+001dB,5.56114932346773e+001°)
9.51135758292292e+000	(2.58755169680003e+001dB,5.55668057105502e+001°)
9.53328352659559e+000	(2.58905543029101e+001dB,5.55220241832044e+001°)
9.55526001478851e+000	(2.59055755190175e+001dB,5.54771488478256e+001°)
9.57728716401884e+000	(2.59205805729053e+001dB,5.54321799006938e+001°)
9.59936509107231e+000	(2.59355694212062e+001dB,5.53871175391893e+001°)
9.62149391300391e+000	(2.59505420206034e+001dB,5.53419619617853e+001°)
9.64367374713845e+000	(2.59654983278322e+001dB,5.52967133680590e+001°)
9.66590471107119e+000	(2.59804382996806e+001dB,5.52513719586807e+001°)
9.68818692266850e+000	(2.59953618929904e+001dB,5.52059379354310e+001°)
9.71052050006845e+000	(2.60102690646585e+001dB,5.51604115011845e+001°)
9.73290556168143e+000	(2.60251597716372e+001dB,5.51147928599262e+001°)
9.75534222619082e+000	(2.60400339709350e+001dB,5.50690822167412e+001°)
9.77783061255358e+000	(2.60548916196192e+001dB,5.50232797778202e+001°)
9.80037084000089e+000	(2.60697326748148e+001dB,5.49773857504652e+001°)
9.82296302803879e+000	(2.60845570937069e+001dB,5.49314003430826e+001°)
9.84560729644883e+000	(2.60993648335412e+001dB,5.48853237651880e+001°)
9.86830376528865e+000	(2.61141558516255e+001dB,5.48391562274050e+001°)
9.89105255489267e+000	(2.61289301053295e+001dB,5.47928979414723e+001°)
9.91385378587272e+000	(2.61436875520871e+001dB,5.47465491202342e+001°)
9.93670757911864e+000	(2.61584281493971e+001dB,5.47001099776505e+001°)
9.95961405579898e+000	(2.61731518548233e+001dB,5.46535807287912e+001°)
9.98257333736159e+000	(2.61878586259966e+001dB,5.46069615898385e+001°)
1.00055855455343e+001	(2.62025484206159e+001dB,5.45602527780943e+001°)
1.00286508023255e+001	(2.62172211964480e+001dB,5.45134545119709e+001°)
1.00517692300250e+001	(2.62318769113310e+001dB,5.44665670109922e+001°)
1.00749409512043e+001	(2.62465155231726e+001dB,5.44195904958033e+001°)
1.00981660887176e+001	(2.62611369899520e+001dB,5.43725251881611e+001°)
1.01214447657023e+001	(2.62757412697228e+001dB,5.43253713109425e+001°)
1.01447771055796e+001	(2.62903283206111e+001dB,5.42781290881353e+001°)
1.01681632320552e+001	(2.63048981008190e+001dB,5.42307987448488e+001°)
1.01916032691200e+001	(2.63194505686234e+001dB,5.41833805073084e+001°)
1.02150973410508e+001	(2.63339856823797e+001dB,5.41358746028543e+001°)
1.02386455724109e+001	(2.63485034005201e+001dB,5.40882812599472e+001°)
1.02622480880505e+001	(2.63630036815565e+001dB,5.40406007081618e+001°)
1.02859050131079e+001	(2.63774864840818e+001dB,5.39928331781944e+001°)
1.03096164730098e+001	(2.63919517667682e+001dB,5.39449789018526e+001°)
1.03333825934719e+001	(2.64063994883719e+001dB,5.38970381120695e+001°)
1.03572035004999e+001	(2.64208296077317e+001dB,5.38490110428889e+001°)
1.03810793203898e+001	(2.64352420837712e+001dB,5.38008979294737e+001°)
1.04050101797289e+001	(2.64496368754988e+001dB,5.37526990081052e+001°)
1.04289962053961e+001	(2.64640139420104e+001dB,5.37044145161785e+001°)
1.04530375245631e+001	(2.64783732424888e+001dB,5.36560446922065e+001°)
1.04771342646944e+001	(2.64927147362061e+001dB,5.36075897758206e+001°)
1.05012865535486e+001	(2.65070383825233e+001dB,5.35590500077641e+001°)
1.05254945191788e+001	(2.65213441408933e+001dB,5.35104256298971e+001°)
1.05497582899331e+001	(2.65356319708600e+001dB,5.34617168851934e+001°)
1.05740779944557e+001	(2.65499018320601e+001dB,5.34129240177438e+001°)
1.05984537616872e+001	(2.65641536842258e+001dB,5.33640472727477e+001°)
1.06228857208655e+001	(2.65783874871831e+001dB,5.33150868965213e+001°)
1.06473740015264e+001	(2.65926032008547e+001dB,5.32660431364922e+001°)
1.06719187335044e+001	(2.66068007852605e+001dB,5.32169162411988e+001°)
1.06965200469331e+001	(2.66209802005189e+001dB,5.31677064602890e+001°)
1.07211780722463e+001	(2.66351414068479e+001dB,5.31184140445233e+001°)
1.07458929401784e+001	(2.66492843645657e+001dB,5.30690392457681e+001°)
1.07706647817652e+001	(2.66634090340928e+001dB,5.30195823169988e+001°)
1.07954937283444e+001	(2.66775153759515e+001dB,5.29700435122990e+001°)
1.08203799115567e+001	(2.66916033507688e+001dB,5.29204230868546e+001°)
1.08453234633461e+001	(2.67056729192761e+001dB,5.28707212969602e+001°)
1.08703245159610e+001	(2.67197240423110e+001dB,5.28209384000088e+001°)
1.08953832019543e+001	(2.67337566808188e+001dB,5.27710746545021e+001°)
1.09204996541848e+001	(2.67477707958518e+001dB,5.27211303200367e+001°)
1.09456740058173e+001	(2.67617663485726e+001dB,5.26711056573136e+001°)
1.09709063903238e+001	(2.67757433002537e+001dB,5.26210009281268e+001°)
1.09961969414838e+001	(2.67897016122800e+001dB,5.25708163953724e+001°)
1.10215457933854e+001	(2.68036412461476e+001dB,5.25205523230369e+001°)
1.10469530804256e+001	(2.68175621634672e+001dB,5.24702089762033e+001°)
1.10724189373114e+001	(2.68314643259642e+001dB,5.24197866210475e+001°)
1.10979434990601e+001	(2.68453476954796e+001dB,5.23692855248325e+001°)
1.11235269010005e+001	(2.68592122339722e+001dB,5.23187059559133e+001°)
1.11491692787733e+001	(2.68730579035179e+001dB,5.22680481837290e+001°)
1.11748707683317e+001	(2.68868846663125e+001dB,5.22173124788063e+001°)
1.12006315059424e+001	(2.69006924846719e+001dB,5.21664991127515e+001°)
1.12264516281864e+001	(2.69144813210331e+001dB,5.21156083582573e+001°)
1.12523312719594e+001	(2.69282511379564e+001dB,5.20646404890917e+001°)
1.12782705744727e+001	(2.69420018981245e+001dB,5.20135957800998e+001°)
1.13042696732538e+001	(2.69557335643463e+001dB,5.19624745072036e+001°)
1.13303287061475e+001	(2.69694460995555e+001dB,5.19112769473989e+001°)
1.13564478113160e+001	(2.69831394668132e+001dB,5.18600033787495e+001°)
1.13826271272403e+001	(2.69968136293075e+001dB,5.18086540803862e+001°)
1.14088667927206e+001	(2.70104685503574e+001dB,5.17572293325108e+001°)
1.14351669468768e+001	(2.70241041934104e+001dB,5.17057294163877e+001°)
1.14615277291499e+001	(2.70377205220467e+001dB,5.16541546143398e+001°)
1.14879492793020e+001	(2.70513174999775e+001dB,5.16025052097483e+001°)
1.15144317374177e+001	(2.70648950910492e+001dB,5.15507814870567e+001°)
1.15409752439041e+001	(2.70784532592410e+001dB,5.14989837317525e+001°)
1.15675799394925e+001	(2.70919919686697e+001dB,5.14471122303831e+001°)
1.15942459652381e+001	(2.71055111835866e+001dB,5.13951672705385e+001°)
1.16209734625217e+001	(2.71190108683832e+001dB,5.13431491408591e+001°)
1.16477625730498e+001	(2.71324909875887e+001dB,5.12910581310211e+001°)
1.16746134388555e+001	(2.71459515058724e+001dB,5.12388945317453e+001°)
1.17015262022995e+001	(2.71593923880453e+001dB,5.11866586347874e+001°)
1.17285010060706e+001	(2.71728135990606e+001dB,5.11343507329391e+001°)
1.17555379931865e+001	(2.71862151040140e+001dB,5.10819711200193e+001°)
1.17826373069946e+001	(2.71995968681469e+001dB,5.10295200908759e+001°)
1.18097990911728e+001	(2.72129588568449e+001dB,5.09769979413815e+001°)
1.18370234897301e+001	(2.72263010356416e+001dB,5.09244049684286e+001°)
1.18643106470076e+001	(2.72396233702173e+001dB,5.08717414699311e+001°)
1.18916607076791e+001	(2.72529258264009e+001dB,5.08190077448112e+001°)
1.19190738167519e+001	(2.72662083701723e+001dB,5.07662040930078e+001°)
1.19465501195676e+001	(2.72794709676611e+001dB,5.07133308154633e+001°)
1.19740897618027e+001	(2.72927135851499e+001dB,5.06603882141283e+001°)
1.20016928894698e+001	(2.73059361890730e+001dB,5.06073765919497e+001°)
1.20293596489179e+001	(2.73191387460202e+001dB,5.05542962528734e+001°)
1.20570901868333e+001	(2.73323212227357e+001dB,5.05011475018358e+001°)
1.20848846502407e+001	(2.73454835861212e+001dB,5.04479306447683e+001°)
1.21127431865035e+001	(2.73586258032334e+001dB,5.03946459885835e+001°)
1.21406659433248e+001	(2.73717478412898e+001dB,5.03412938411763e+001°)
1.21686530687484e+001	(2.73848496676656e+001dB,5.02878745114190e+001°)
1.21967047111592e+001	(2.73979312498980e+001dB,5.02343883091593e+001°)
1.22248210192843e+001	(2.74109925556840e+001dB,5.01808355452134e+001°)
1.22530021421935e+001	(2.74240335528851e+001dB,5.01272165313633e+001°)
1.22812482293002e+001	(2.74370542095250e+001dB,5.00735315803533e+001°)
1.23095594303626e+001	(2.74500544937931e+001dB,5.00197810058843e+001°)
1.23379358954836e+001	(2.74630343740436e+001dB,4.99659651226114e+001°)
1.23663777751126e+001	(2.74759938187983e+001dB,4.99120842461360e+001°)
1.23948852200454e+001	(2.74889327967459e+001dB,4.98581386930042e+001°)
1.24234583814259e+001	(2.75018512767455e+001dB,4.98041287807070e+001°)
1.24520974107459e+001	(2.75147492278243e+001dB,4.97500548276636e+001°)
1.24808024598469e+001	(2.75276266191817e+001dB,4.96959171532309e+001°)
1.25095736809201e+001	(2.75404834201880e+001dB,4.96417160776844e+001°)
1.25384112265076e+001	(2.75533196003872e+001dB,4.95874519222288e+001°)
1.25673152495034e+001	(2.75661351294971e+001dB,4.95331250089816e+001°)
1.25962859031535e+001	(2.75789299774102e+001dB,4.94787356609742e+001°)
1.26253233410575e+001	(2.75917041141955e+001dB,4.94242842021435e+001°)
1.26544277171691e+001	(2.76044575100980e+001dB,4.93697709573318e+001°)
1.26835991857968e+001	(2.76171901355418e+001dB,4.93151962522748e+001°)
1.27128379016047e+001	(2.76299019611295e+001dB,4.92605604136066e+001°)
1.27421440196136e+001	(2.76425929576436e+001dB,4.92058637688417e+001°)
1.27715176952017e+001	(2.76552630960471e+001dB,4.91511066463844e+001°)
1.28009590841053e+001	(2.76679123474860e+001dB,4.90962893755095e+001°)
1.28304683424196e+001	(2.76805406832881e+001dB,4.90414122863698e+001°)
1.28600456265998e+001	(2.76931480749657e+001dB,4.89864757099782e+001°)
1.28896910934618e+001	(2.77057344942165e+001dB,4.89314799782168e+001°)
1.29194049001828e+001	(2.77182999129225e+001dB,4.88764254238187e+001°)
1.29491872043025e+001	(2.77308443031536e+001dB,4.88213123803697e+001°)
1.29790381637237e+001	(2.77433676371676e+001dB,4.87661411823015e+001°)
1.30089579367132e+001	(2.77558698874101e+001dB,4.87109121648814e+001°)
1.30389466819028e+001	(2.77683510265166e+001dB,4.86556256642173e+001°)
1.30690045582896e+001	(2.77808110273140e+001dB,4.86002820172378e+001°)
1.30991317252376e+001	(2.77932498628198e+001dB,4.85448815617030e+001°)
1.31293283424780e+001	(2.78056675062440e+001dB,4.84894246361825e+001°)
1.31595945701104e+001	(2.78180639309900e+001dB,4.84339115800625e+001°)
1.31899305686031e+001	(2.78304391106560e+001dB,4.83783427335323e+001°)
1.32203364987947e+001	(2.78427930190356e+001dB,4.83227184375808e+001°)
1.32508125218944e+001	(2.78551256301166e+001dB,4.82670390339905e+001°)
1.32813587994829e+001	(2.78674369180865e+001dB,4.82113048653325e+001°)
1.33119754935138e+001	(2.78797268573284e+001dB,4.81555162749575e+001°)
1.33426627663135e+001	(2.78919954224259e+001dB,4.80996736069967e+001°)
1.33734207805830e+001	(2.79042425881613e+001dB,4.80437772063418e+001°)
1.34042496993981e+001	(2.79164683295173e+001dB,4.79878274186563e+001°)
1.34351496862109e+001	(2.79286726216792e+001dB,4.79318245903553e+001°)
1.34661209048498e+001	(2.79408554400334e+001dB,4.78757690686062e+001°)
1.34971635195212e+001	(2.79530167601700e+001dB,4.78196612013211e+001°)
1.35282776948101e+001	(2.79651565578840e+001dB,4.77635013371512e+001°)
1.35594635956806e+001	(2.79772748091734e+001dB,4.77072898254731e+001°)
1.35907213874772e+001	(2.79893714902430e+001dB,4.76510270163970e+001°)
1.36220512359258e+001	(2.80014465775050e+001dB,4.75947132607452e+001°)
1.36534533071339e+001	(2.80135000475772e+001dB,4.75383489100530e+001°)
1.36849277675923e+001	(2.80255318772872e+001dB,4.74819343165604e+001°)
1.37164747841755e+001	(2.80375420436709e+001dB,4.74254698332088e+001°)
1.37480945241425e+001	(2.80495305239743e+001dB,4.73689558136282e+001°)
1.37797871551381e+001	(2.80614972956535e+001dB,4.73123926121355e+001°)
1.38115528451935e+001	(2.80734423363771e+001dB,4.72557805837242e+001°)
1.38433917627272e+001	(2.80853656240251e+001dB,4.71991200840567e+001°)
1.38753040765459e+001	(2.80972671366911e+001dB,4.71424114694661e+001°)
1.39072899558456e+001	(2.81091468526820e+001dB,4.70856550969380e+001°)
1.39393495702122e+001	(2.81210047505200e+001dB,4.70288513241086e+001°)
1.39714830896226e+001	(2.81328408089420e+001dB,4.69720005092601e+001°)
1.40036906844455e+001	(2.81446550069014e+001dB,4.69151030113082e+001°)
1.40359725254425e+001	(2.81564473235684e+001dB,4.68581591897985e+001°)
1.40683287837685e+001	(2.81682177383307e+001dB,4.68011694048974e+001°)
1.41007596309732e+001	(2.81799662307950e+001dB,4.67441340173879e+001°)
1.41332652390018e+001	(2.81916927807859e+001dB,4.66870533886589e+001°)
1.41658457801958e+001	(2.82033973683485e+001dB,4.66299278807004e+001°)
1.41985014272940e+001	(2.82150799737491e+001dB,4.65727578560893e+001°)
1.42312323534333e+001	(2.82267405774737e+001dB,4.65155436780018e+001°)
1.42640387321499e+001	(2.82383791602319e+001dB,4.64582857101769e+001°)
1.42969207373799e+001	(2.82499957029541e+001dB,4.64009843169303e+001°)
1.43298785434604e+001	(2.82615901867961e+001dB,4.63436398631398e+001°)
1.43629123251305e+001	(2.82731625931359e+001dB,4.62862527142414e+001°)
1.43960222575319e+001	(2.82847129035767e+001dB,4.62288232362132e+001°)
1.44292085162102e+001	(2.82962410999474e+001dB,4.61713517955792e+001°)
1.44624712771157e+001	(2.83077471643025e+001dB,4.61138387593894e+001°)
1.44958107166043e+001	(2.83192310789231e+001dB,4.60562844952241e+001°)
1.45292270114382e+001	(2.83306928263181e+001dB,4.59986893711784e+001°)
1.45627203387874e+001	(2.83421323892232e+001dB,4.59410537558531e+001°)
1.45962908762302e+001	(2.83535497506037e+001dB,4.58833780183563e+001°)
1.46299388017542e+001	(2.83649448936530e+001dB,4.58256625282870e+001°)
1.46636642937573e+001	(2.83763178017951e+001dB,4.57679076557254e+001°)
1.46974675310489e+001	(2.83876684586836e+001dB,4.57101137712353e+001°)
1.47313486928501e+001	(2.83989968482034e+001dB,4.56522812458484e+001°)
1.47653079587957e+001	(2.84103029544706e+001dB,4.55944104510537e+001°)
1.47993455089342e+001	(2.84215867618335e+001dB,4.55365017588038e+001°)
1.48334615237294e+001	(2.84328482548732e+001dB,4.54785555414837e+001°)
1.48676561840610e+001	(2.84440874184033e+001dB,4.54205721719275e+001°)
1.49019296712256e+001	(2.84553042374714e+001dB,4.53625520233873e+001°)
1.49362821669379e+001	(2.84664986973597e+001dB,4.53044954695478e+001°)
1.49707138533314e+001	(2.84776707835849e+001dB,4.52464028844971e+001°)
1.50052249129594e+001	(2.84888204818982e+001dB,4.51882746427330e+001°)
1.50398155287962e+001	(2.84999477782877e+001dB,4.51301111191458e+001°)
1.50744858842378e+001	(2.85110526589774e+001dB,4.50719126890187e+001°)
1.51092361631029e+001	(2.85221351104276e+001dB,4.50136797280112e+001°)
1.51440665496340e+001	(2.85331951193363e+001dB,4.49554126121568e+001°)
1.51789772284985e+001	(2.85442326726390e+001dB,4.48971117178472e+001°)
1.52139683847892e+001	(2.85552477575100e+001dB,4.48387774218307e+001°)
1.52490402040258e+001	(2.85662403613608e+001dB,4.47804101012037e+001°)
1.52841928721555e+001	(2.85772104718429e+001dB,4.47220101334016e+001°)
1.53194265755544e+001	(2.85881580768483e+001dB,4.46635778961806e+001°)
1.53547415010279e+001	(2.85990831645069e+001dB,4.46051137676260e+001°)
1.53901378358124e+001	(2.86099857231899e+001dB,4.45466181261318e+001°)
1.54256157675756e+001	(2.86208657415093e+001dB,4.44880913503963e+001°)
1.54611754844181e+001	(2.86317232083185e+001dB,4.44295338194116e+001°)
1.54968171748739e+001	(2.86425581127117e+001dB,4.43709459124544e+001°)
1.55325410279116e+001	(2.86533704440257e+001dB,4.43123280090832e+001°)
1.55683472329357e+001	(2.86641601918391e+001dB,4.42536804891235e+001°)
1.56042359797871e+001	(2.86749273459736e+001dB,4.41950037326592e+001°)
1.56402074587442e+001	(2.86856718964933e+001dB,4.41362981200274e+001°)
1.56762618605243e+001	(2.86963938337063e+001dB,4.40775640318088e+001°)
1.57123993762843e+001	(2.87070931481633e+001dB,4.40188018488154e+001°)
1.57486201976217e+001	(2.87177698306603e+001dB,4.39600119520878e+001°)
1.57849245165757e+001	(2.87284238722368e+001dB,4.39011947228814e+001°)
1.58213125256280e+001	(2.87390552641771e+001dB,4.38423505426561e+001°)
1.58577844177045e+001	(2.87496639980105e+001dB,4.37834797930748e+001°)
1.58943403861753e+001	(2.87602500655107e+001dB,4.37245828559919e+001°)
1.59309806248566e+001	(2.87708134586978e+001dB,4.36656601134383e+001°)
1.59677053280113e+001	(2.87813541698369e+001dB,4.36067119476147e+001°)
1.60045146903501e+001	(2.87918721914402e+001dB,4.35477387408956e+001°)
1.60414089070326e+001	(2.88023675162645e+001dB,4.34887408757980e+001°)
1.60783881736682e+001	(2.88128401373135e+001dB,4.34297187349936e+001°)
1.61154526863174e+001	(2.88232900478388e+001dB,4.33706727012833e+001°)
1.61526026414925e+001	(2.88337172413371e+001dB,4.33116031576016e+001°)
1.61898382361589e+001	(2.88441217115530e+001dB,4.32525104869946e+001°)
1.62271596677359e+001	(2.88545034524787e+001dB,4.31933950726251e+001°)
1.62645671340981e+001	(2.88648624583531e+001dB,4.31342572977551e+001°)
1.63020608335762e+001	(2.88751987236627e+001dB,4.30750975457323e+001°)
1.63396409649580e+001	(2.88855122431427e+001dB,4.30159161999905e+001°)
1.63773077274896e+001	(2.88958030117750e+001dB,4.29567136440406e+001°)
1.64150613208765e+001	(2.89060710247904e+001dB,4.28974902614516e+001°)
1.64529019452845e+001	(2.89163162776676e+001dB,4.28382464358531e+001°)
1.64908298013407e+001	(2.89265387661334e+001dB,4.27789825509150e+001°)
1.65288450901349e+001	(2.89367384861634e+001dB,4.27196989903535e+001°)
1.65669480132204e+001	(2.89469154339818e+001dB,4.26603961379023e+001°)
1.66051387726150e+001	(2.89570696060611e+001dB,4.26010743773216e+001°)
1.66434175708025e+001	(2.89672009991222e+001dB,4.25417340923789e+001°)
1.66817846107331e+001	(2.89773096101356e+001dB,4.24823756668429e+001°)
1.67202400958250e+001	(2.89873954363198e+001dB,4.24229994844740e+001°)
1.67587842299656e+001	(2.89974584751423e+001dB,4.23636059290152e+001°)
1.67974172175118e+001	(2.90074987243199e+001dB,4.23041953841808e+001°)
1.68361392632920e+001	(2.90175161818191e+001dB,4.22447682336549e+001°)
1.68749505726065e+001	(2.90275108458533e+001dB,4.21853248610702e+001°)
1.69138513512292e+001	(2.90374827148860e+001dB,4.21258656500135e+001°)
1.69528418054080e+001	(2.90474317876300e+001dB,4.20663909839988e+001°)
1.69919221418664e+001	(2.90573580630467e+001dB,4.20069012464782e+001°)
1.70310925678045e+001	(2.90672615403469e+001dB,4.19473968208144e+001°)
1.70703532909001e+001	(2.90771422189888e+001dB,4.18878780902845e+001°)
1.71097045193094e+001	(2.90870000986812e+001dB,4.18283454380638e+001°)
1.71491464616690e+001	(2.90968351793809e+001dB,4.17687992472204e+001°)
